hour, t(sec), S1 (kVA), Ang1, S2 (kVA), Ang2, S3 (kVA), Ang3
0, 900.00000, 689.03, 14.3047, 662.145, 14.5073, 728.281, 13.8434
0, 1800.00000, 738.367, 15.3705, 707.197, 15.207, 754.255, 14.7325
0, 2700.00000, 736.521, 15.4245, 712.625, 15.4557, 747.294, 14.819
1, 0.00000, 690.057, 14.8799, 675.202, 15.1156, 708.798, 14.6221
1, 900.00000, 602.802, 15.8632, 604.474, 16.1185, 599.563, 15.884
1, 1800.00000, 598.755, 15.9203, 605.961, 16.1355, 605.199, 15.5644
1, 2700.00000, 601.02, 15.8701, 598.611, 16.0272, 606.343, 15.6849
2, 0.00000, 594.449, 15.6151, 588.91, 15.7025, 593.83, 15.4649
2, 900.00000, 593.944, 15.5701, 606.449, 15.7715, 586.447, 15.4862
2, 1800.00000, 594.404, 15.5426, 606.816, 15.6512, 583.326, 15.7629
2, 2700.00000, 594.534, 15.2515, 607.288, 15.4534, 584.977, 15.5116
3, 0.00000, 614.394, 15.3142, 621.968, 15.3027, 600.673, 15.2585
3, 900.00000, 621.2, 15.5483, 616.55, 15.5555, 607.068, 15.4799
3, 1800.00000, 622.492, 15.4267, 632.157, 15.6525, 615.918, 15.4661
3, 2700.00000, 639.721, 15.5682, 660.198, 15.8677, 635.411, 15.5639
4, 0.00000, 636.161, 15.3817, 642.43, 15.4179, 628.853, 15.3782
4, 900.00000, 640.705, 15.2313, 636.021, 15.1124, 631.409, 15.0652
4, 1800.00000, 666.917, 15.4724, 657.642, 15.4697, 648.784, 15.2972
4, 2700.00000, 694.004, 15.3551, 680.286, 15.3848, 690.795, 15.1392
5, 0.00000, 696.269, 15.1623, 680.57, 15.0154, 686.69, 14.9651
5, 900.00000, 766.17, 15.5022, 730.717, 15.3241, 735.937, 15.2166
5, 1800.00000, 759.248, 14.8807, 719.409, 14.6345, 736.57, 14.7715
5, 2700.00000, 775.243, 14.5738, 749.877, 14.491, 765.999, 14.5789
6, 0.00000, 834.049, 14.9113, 811.846, 14.8113, 826.138, 14.8592
6, 900.00000, 926.394, 15.1817, 913.548, 15.3475, 904.004, 15.0858
6, 1800.00000, 984.248, 15.6842, 973.225, 15.9468, 953.677, 15.6224
6, 2700.00000, 1037.92, 15.7298, 1005.58, 15.7335, 996.057, 15.5168
7, 0.00000, 1069.3, 15.4088, 1029.76, 14.9565, 1017.4, 14.9492
7, 900.00000, 1091.73, 15.5576, 1079.16, 15.5626, 1071.76, 15.3397
7, 1800.00000, 1060.68, 15.1236, 1021.96, 15.3788, 1026.36, 14.9792
7, 2700.00000, 1095.49, 15.8927, 1040.08, 15.9045, 1037.7, 15.5776
8, 0.00000, 1026.4, 16.7259, 977.969, 17.1051, 989.516, 16.417
8, 900.00000, 963.902, 18.0099, 936.469, 18.6169, 948.654, 17.835
8, 1800.00000, 967.726, 18.5035, 924.718, 19.5796, 963.837, 18.433
8, 2700.00000, 944.804, 19.6626, 885.049, 21.0467, 944.577, 19.5742
9, 0.00000, 865.091, 20.5173, 826.986, 21.7231, 877.88, 20.1517
9, 900.00000, 850.739, 22.647, 843.499, 23.8176, 841.695, 22.5277
9, 1800.00000, 818.133, 23.593, 810.021, 24.7555, 809.099, 23.4054
9, 2700.00000, 746.008, 24.3167, 723.545, 25.5356, 754.234, 23.9658
10, 0.00000, 734.2, 25.1935, 682.887, 27.0673, 728.796, 24.8926
10, 900.00000, 839.269, 22.9848, 777.236, 24.4129, 869.605, 21.4785
10, 1800.00000, 861.673, 23.1441, 796.018, 24.545, 887.538, 21.6064
10, 2700.00000, 819.553, 24.606, 750.476, 26.4597, 831.115, 23.1421
11, 0.00000, 803.56, 25.3466, 727.861, 27.7151, 809.578, 24.0885
11, 900.00000, 783.503, 25.7953, 735.284, 28.119, 802.282, 24.5777
11, 1800.00000, 782.091, 25.624, 736.922, 27.8979, 801.765, 24.5215
11, 2700.00000, 685.198, 26.422, 640.549, 29.1852, 710.924, 25.2674
12, 0.00000, 708.394, 26.7365, 664.581, 29.4362, 711.074, 25.981
12, 900.00000, 716.769, 26.6625, 709.686, 28.3442, 721.97, 26.0856
12, 1800.00000, 694.185, 26.6081, 697.872, 28.4995, 691.512, 26.5022
12, 2700.00000, 650.229, 27.2064, 647.445, 29.1114, 644.319, 26.9741
13, 0.00000, 653.516, 27.6691, 633.551, 29.2491, 641.136, 27.3669
13, 900.00000, 617.413, 27.8058, 623.075, 29.2238, 623.921, 27.1853
13, 1800.00000, 632.563, 27.7829, 659.722, 28.7805, 653.827, 26.8343
13, 2700.00000, 601.197, 28.2854, 632.405, 29.3194, 637.455, 27.0481
14, 0.00000, 605.596, 28.3959, 626.169, 29.5596, 630.12, 27.4172
14, 900.00000, 556.968, 28.0111, 583.546, 28.6819, 583.555, 26.8827
14, 1800.00000, 572.229, 26.9205, 585.759, 26.9804, 575.704, 26.1145
14, 2700.00000, 618.536, 26.3713, 618.91, 26.4801, 610.939, 25.8982
15, 0.00000, 633.5, 25.8903, 658.151, 26.2962, 620.335, 25.9409
15, 900.00000, 642.182, 24.0949, 680.375, 24.7355, 645.118, 24.0367
15, 1800.00000, 689.361, 23.0381, 676.048, 24.2102, 677.388, 22.9693
15, 2700.00000, 753.028, 22.5218, 723.138, 23.6289, 727.184, 22.3682
16, 0.00000, 808.722, 21.8414, 793.096, 22.679, 783.792, 21.8412
16, 900.00000, 834.458, 21.8509, 827.173, 22.0685, 798.162, 21.521
16, 1800.00000, 842.045, 20.9229, 842.255, 21.0389, 832.668, 20.4881
16, 2700.00000, 871.962, 19.9482, 862.521, 19.9158, 849.37, 19.5717
17, 0.00000, 905.458, 19.2546, 867.231, 19.07, 875.335, 18.8112
17, 900.00000, 999.585, 17.9447, 953.549, 17.6717, 969.027, 17.461
17, 1800.00000, 1085.42, 17.825, 1038.97, 17.8059, 1035.59, 17.239
17, 2700.00000, 1119.71, 17.8783, 1077.39, 18.0832, 1055.28, 17.2988
18, 0.00000, 1100.55, 17.9155, 1056.91, 17.7508, 1056.71, 17.1042
18, 900.00000, 1132.13, 17.054, 1126.65, 17.2099, 1077.3, 16.7452
18, 1800.00000, 1086.15, 17.0384, 1095.84, 17.1661, 1054.98, 16.7517
18, 2700.00000, 1125.22, 17.4362, 1130.17, 17.4947, 1079.8, 16.946
19, 0.00000, 1177.53, 17.4784, 1181.72, 17.643, 1132.08, 16.956
19, 900.00000, 1212.69, 16.7663, 1209.39, 16.9958, 1177.21, 16.2372
19, 1800.00000, 1213.61, 16.7663, 1196.96, 16.9018, 1177.29, 16.2376
19, 2700.00000, 1234.32, 16.9082, 1223.72, 17.128, 1208.47, 16.1665
20, 0.00000, 1210.05, 16.7842, 1205.25, 17.0086, 1185.5, 16.0114
20, 900.00000, 1163.27, 16.5108, 1154.41, 16.7818, 1126.79, 15.6578
20, 1800.00000, 1204.31, 16.5303, 1210.6, 16.7854, 1173.63, 15.86
20, 2700.00000, 1240, 16.888, 1214.93, 16.7801, 1183.13, 16.1005
21, 0.00000, 1245.72, 16.966, 1194.46, 16.911, 1167.25, 16.0616
21, 900.00000, 1174.54, 17.3324, 1121.13, 17.2215, 1121.33, 16.4867
21, 1800.00000, 1272.97, 18.1203, 1217.71, 17.8979, 1280.44, 17.7107
21, 2700.00000, 1190.25, 17.5061, 1132.86, 17.4245, 1180.64, 16.9715
22, 0.00000, 1139.09, 17.4115, 1094.82, 17.3841, 1147.65, 16.8415
22, 900.00000, 999.631, 16.6892, 960.986, 16.7132, 1006.07, 16.1753
22, 1800.00000, 1023.22, 17.0113, 987.638, 17.2141, 1059.9, 16.8524
22, 2700.00000, 965.843, 16.6506, 920.533, 16.7081, 951.361, 15.8738
23, 0.00000, 942.462, 16.7112, 923.671, 17.1358, 929.441, 15.8263
23, 900.00000, 858.989, 16.6942, 837.592, 16.9704, 841.847, 15.7022
23, 1800.00000, 830.592, 16.5473, 813.351, 16.4741, 813.328, 15.3359
23, 2700.00000, 814.228, 16.0301, 791.964, 16.1369, 801.775, 14.9856
24, 0.00000, 805.464, 15.8736, 788.76, 16.0485, 805.702, 14.9844
24, 900.00000, 829.38, 16.6314, 794.79, 16.6297, 801.644, 15.4887
24, 1800.00000, 820.833, 16.4624, 784.005, 16.6012, 800.085, 15.5792
24, 2700.00000, 764.949, 15.4153, 729.807, 15.7167, 765.494, 14.5528
25, 0.00000, 757.018, 15.1873, 722.561, 15.5302, 757.74, 14.3335
25, 900.00000, 693.572, 16.6379, 655.125, 16.6023, 660.996, 16.0011
25, 1800.00000, 707.709, 16.6846, 683.301, 16.8149, 682.569, 16.1881
25, 2700.00000, 670.35, 15.8372, 646.444, 15.9201, 656.707, 15.4354
26, 0.00000, 650.305, 15.4194, 629.035, 15.2908, 633.299, 15.1071
26, 900.00000, 646.833, 14.8606, 636.664, 14.9197, 635.189, 14.7188
26, 1800.00000, 666.521, 14.8885, 651.642, 14.8598, 646.58, 14.5225
26, 2700.00000, 682.116, 14.7512, 677.865, 14.9632, 672.244, 14.5575
27, 0.00000, 702.361, 14.7745, 700.47, 15.0554, 691.108, 14.5044
27, 900.00000, 705.955, 14.986, 685.99, 15.2092, 687.183, 14.5679
27, 1800.00000, 714.862, 14.9895, 697.571, 15.2473, 698.057, 14.5963
27, 2700.00000, 734.501, 15.2439, 719.36, 15.532, 716.608, 14.8346
28, 0.00000, 717.489, 14.8365, 697.666, 14.9807, 706.185, 14.4321
28, 900.00000, 730.192, 14.8202, 719.476, 15.1317, 723.611, 14.5128
28, 1800.00000, 761.242, 14.6438, 761.039, 14.8364, 757.275, 14.2259
28, 2700.00000, 761.473, 14.647, 751.837, 14.8952, 752.154, 14.3506
29, 0.00000, 746.358, 14.2655, 734.604, 14.5032, 736.163, 14.0627
29, 900.00000, 784.463, 14.2584, 756.893, 14.3686, 777.312, 13.9895
29, 1800.00000, 831.508, 14.3868, 791.43, 14.5103, 819.433, 14.08
29, 2700.00000, 845.424, 14.2836, 826.579, 14.4432, 830.092, 14.0292
30, 0.00000, 877.764, 13.8544, 838.739, 13.7624, 860.946, 13.4558
30, 900.00000, 925.068, 13.5405, 881.994, 13.8553, 915.606, 13.5355
30, 1800.00000, 991.553, 14.5495, 965.589, 14.9314, 972.152, 14.5807
30, 2700.00000, 1086.12, 14.9785, 1071.93, 15.2184, 1053.08, 14.8662
31, 0.00000, 1079.08, 14.8623, 1053.4, 15.0962, 1039.48, 14.7374
31, 900.00000, 1121.15, 15.8017, 1102.33, 16.1677, 1082.99, 15.6578
31, 1800.00000, 1172.77, 15.4239, 1146.21, 16.0791, 1152.6, 15.396
31, 2700.00000, 1135.6, 15.4934, 1113.38, 15.8517, 1132.31, 15.3061
32, 0.00000, 1074.6, 16.1791, 1043.16, 16.9979, 1076.36, 16.1661
32, 900.00000, 1052.36, 18.0321, 1033.39, 19.1146, 1093.09, 17.8187
32, 1800.00000, 1040.69, 19.1742, 1010.41, 20.2862, 1074.7, 18.6491
32, 2700.00000, 998.202, 20.0795, 956.207, 21.4925, 1025.88, 19.4752
33, 0.00000, 938.372, 20.788, 897.14, 22.2672, 978.334, 20.1198
33, 900.00000, 897.974, 21.597, 839.587, 23.3415, 930.209, 20.932
33, 1800.00000, 852.542, 21.9535, 820.692, 23.7978, 888.404, 21.3268
33, 2700.00000, 820.182, 23.4089, 788.636, 25.3382, 837.519, 22.9377
34, 0.00000, 819.42, 24.1553, 792.422, 26.0221, 812.13, 23.866
34, 900.00000, 914.16, 22.6017, 870.672, 24.8127, 914.614, 21.7973
34, 1800.00000, 934.403, 21.8743, 904.448, 24.0741, 954.486, 21.0656
34, 2700.00000, 889.271, 22.3977, 869.135, 24.5526, 948.446, 21.4021
35, 0.00000, 823.238, 22.8164, 825.194, 24.8749, 914.121, 21.4723
35, 900.00000, 796.378, 23.3289, 821.362, 25.3093, 910.847, 21.6706
35, 1800.00000, 776.699, 24.7774, 769.359, 27.0989, 853.771, 23.0065
35, 2700.00000, 733.857, 25.4596, 776.179, 27.3528, 829.977, 23.5939
36, 0.00000, 700.16, 26.1085, 765.868, 27.8665, 795.125, 24.4011
36, 900.00000, 718.947, 27.3177, 757.845, 28.6598, 785.135, 25.7289
36, 1800.00000, 677.188, 28.0212, 702.628, 29.2445, 739.781, 26.1076
36, 2700.00000, 615.716, 29.9336, 678.596, 30.6455, 660.166, 28.4218
37, 0.00000, 619.389, 29.9838, 664.53, 30.9259, 659.166, 28.1855
37, 900.00000, 585.756, 30.2515, 620.069, 31.1325, 598.266, 28.951
37, 1800.00000, 583.501, 30.2493, 612.327, 30.9169, 588.159, 29.3424
37, 2700.00000, 560.691, 30.0676, 609.302, 30.593, 582.46, 29.1928
38, 0.00000, 546.314, 29.8925, 592.172, 30.8595, 562.781, 29.0849
38, 900.00000, 511.247, 29.7411, 542.776, 30.5057, 523.934, 29.1488
38, 1800.00000, 501.605, 29.6835, 535.68, 30.1303, 516.8, 29.0031
38, 2700.00000, 498.846, 29.3821, 525.337, 30.0138, 513.656, 28.9198
39, 0.00000, 521.17, 28.251, 537.116, 29.1345, 531.313, 27.9741
39, 900.00000, 571.299, 27.1226, 574.543, 28.4801, 568.12, 26.6071
39, 1800.00000, 607.893, 25.7532, 588.398, 27.1961, 589.933, 25.6623
39, 2700.00000, 635.262, 24.3442, 630.856, 25.6506, 623.057, 24.9595
40, 0.00000, 643.737, 22.6264, 646.885, 24.1322, 628.758, 23.3692
40, 900.00000, 647.3, 21.5063, 652.621, 22.899, 622.612, 22.7612
40, 1800.00000, 725.758, 21.4234, 717.042, 22.2525, 711.953, 21.9541
40, 2700.00000, 763.047, 20.9327, 763.097, 21.5864, 759.798, 21.2696
41, 0.00000, 763.885, 20.3759, 767.325, 20.8803, 764.603, 20.6959
41, 900.00000, 842.762, 18.67, 840.753, 18.9145, 836.369, 18.566
41, 1800.00000, 939.692, 18.03, 933.167, 18.0043, 911.843, 17.5234
41, 2700.00000, 1002.47, 17.8293, 968.948, 17.605, 969.391, 17.567
42, 0.00000, 1002.25, 17.9795, 1002.67, 17.8666, 992.766, 17.6832
42, 900.00000, 1037.88, 17.2182, 1052.19, 17.5649, 998.163, 17.3154
42, 1800.00000, 1070.48, 17.1375, 1093.76, 17.3025, 1038.14, 17.1826
42, 2700.00000, 1040.12, 16.8675, 1061.93, 17.1876, 1085.27, 16.7716
43, 0.00000, 1023.69, 16.252, 1042.18, 16.6876, 1097.73, 16.1111
43, 900.00000, 1044.85, 16.1416, 1036.87, 16.7427, 1086.76, 16.0274
43, 1800.00000, 1053.67, 16.1996, 1040.8, 16.7543, 1052.02, 16.1824
43, 2700.00000, 1072.08, 16.017, 1056.68, 16.7665, 1069.46, 15.9466
44, 0.00000, 1052.43, 16.0253, 1039.33, 16.6955, 1056.67, 15.8071
44, 900.00000, 960.262, 16.0547, 962.299, 16.5323, 957.893, 15.891
44, 1800.00000, 968.227, 15.6637, 992.733, 16.1571, 982.952, 15.5725
44, 2700.00000, 971.575, 15.6332, 996.299, 15.9847, 975.908, 15.783
45, 0.00000, 972.259, 15.7964, 990.233, 16.1273, 972.631, 15.9214
45, 900.00000, 924.559, 16.1566, 928.92, 16.4526, 911.698, 16.0749
45, 1800.00000, 990.42, 16.8028, 981.875, 17.1098, 978.881, 16.6334
45, 2700.00000, 1020.11, 17.5446, 970.516, 17.4723, 1001.31, 17.0715
46, 0.00000, 1023.49, 17.1497, 985.163, 17.2017, 1025.86, 16.5521
46, 900.00000, 922.675, 16.6597, 892.928, 16.919, 929.481, 15.9017
46, 1800.00000, 914.664, 16.6759, 863.959, 16.781, 904.989, 15.687
46, 2700.00000, 896.135, 16.6274, 840.424, 16.6115, 902.162, 15.7666
47, 0.00000, 867.428, 16.4632, 819.802, 16.3515, 872.437, 15.4159
47, 900.00000, 758.391, 16.4433, 750.395, 16.5174, 770.391, 15.5766
47, 1800.00000, 745.637, 16.0404, 731.349, 16.0618, 761.544, 15.2887
47, 2700.00000, 759.404, 16.2468, 739.012, 16.1992, 748.602, 15.3822
48, 0.00000, 779.089, 16.4654, 769.431, 16.6009, 758.487, 15.5755
48, 900.00000, 738.258, 15.6487, 730.036, 15.8769, 727.579, 14.9059
48, 1800.00000, 698.744, 15.0679, 689.181, 15.1513, 713.707, 14.4596
48, 2700.00000, 693.66, 14.9329, 680.297, 14.9449, 714.935, 14.4024
49, 0.00000, 696.936, 14.9688, 689.691, 15.0774, 711.023, 14.3252
49, 900.00000, 643.358, 16.429, 644.25, 16.3875, 632.631, 16.1796
49, 1800.00000, 633.199, 16.4205, 631.203, 16.6062, 618.355, 16.4513
49, 2700.00000, 633.26, 16.2092, 632.183, 16.4154, 618.478, 16.1795
50, 0.00000, 661.111, 16.5102, 657.931, 16.6535, 634.895, 16.2763
50, 900.00000, 662.936, 16.2394, 665.676, 16.4434, 644.761, 16.2288
50, 1800.00000, 658.189, 15.9982, 656.781, 16.1155, 637.611, 15.8767
50, 2700.00000, 629.853, 15.1307, 615.4, 15.1351, 614.655, 15.2022
51, 0.00000, 637.487, 15.0709, 620.429, 14.9223, 631.29, 15.0943
51, 900.00000, 637.611, 15.1869, 605.578, 15.0281, 624.266, 15.0009
51, 1800.00000, 628.72, 14.7951, 601.928, 14.7802, 620.16, 14.6894
51, 2700.00000, 635.534, 14.8125, 610.232, 14.7686, 626.537, 14.6544
52, 0.00000, 652.928, 14.9309, 626.993, 14.8182, 640.505, 14.6807
52, 900.00000, 658.572, 14.9178, 633.673, 14.8285, 643.164, 14.6868
52, 1800.00000, 655.21, 14.7905, 634.958, 14.7782, 644.143, 14.6359
52, 2700.00000, 683.925, 15.141, 655.754, 14.9404, 664.643, 14.8525
53, 0.00000, 743.14, 15.8833, 701.865, 15.497, 706.465, 15.3597
53, 900.00000, 744.869, 15.3065, 705.237, 15.0874, 723.029, 14.9417
53, 1800.00000, 734.585, 14.7701, 704.852, 14.7596, 718.165, 14.5218
53, 2700.00000, 803.826, 15.5068, 754.873, 15.0588, 767.19, 15.0044
54, 0.00000, 813.416, 15.7068, 791.397, 15.4996, 777.828, 15.1613
54, 900.00000, 877.838, 15.5099, 884.691, 15.9542, 845.347, 15.315
54, 1800.00000, 944.901, 16.2331, 946.184, 16.4733, 896.085, 15.8971
54, 2700.00000, 1002.36, 16.19, 1008.69, 16.5162, 962.848, 16.0553
55, 0.00000, 1013.83, 16.2868, 1003.98, 16.6485, 964.409, 16.0413
55, 900.00000, 1057.34, 17.167, 1054.33, 17.4676, 1005.6, 16.8293
55, 1800.00000, 1021.35, 17.3766, 1014.42, 17.6885, 987.358, 16.8946
55, 2700.00000, 1045.16, 16.7235, 1052, 17.3549, 1035, 16.3898
56, 0.00000, 1015.54, 16.8578, 1027.43, 17.5244, 1018.88, 16.6614
56, 900.00000, 1039.96, 17.5734, 1064.99, 18.3475, 1048.11, 17.3769
56, 1800.00000, 981.475, 18.2623, 1017.04, 18.6798, 987.371, 17.9453
56, 2700.00000, 904.832, 18.9795, 929.719, 19.3945, 934.084, 18.3858
57, 0.00000, 914.316, 19.6932, 923.029, 19.9306, 925.354, 19.0426
57, 900.00000, 988.216, 20.7629, 963.649, 20.9663, 986.143, 20.5042
57, 1800.00000, 946.901, 20.1588, 932.613, 20.6443, 935.192, 19.7553
57, 2700.00000, 930.752, 20.5423, 922.802, 20.9259, 913.436, 20.2335
58, 0.00000, 889.26, 21.2202, 873.04, 22.2158, 858.877, 21.3667
58, 900.00000, 892.071, 20.2797, 892.793, 21.7217, 904.694, 19.9134
58, 1800.00000, 869.75, 19.9585, 873.407, 21.2878, 893.905, 19.4682
58, 2700.00000, 839.408, 20.8067, 846.076, 21.9364, 860.262, 20.0845
59, 0.00000, 791.652, 20.8134, 805.519, 21.7132, 820.019, 20.185
59, 900.00000, 773.885, 20.5128, 805.945, 21.4606, 808.401, 20.1589
59, 1800.00000, 773.699, 20.4524, 783.683, 21.629, 800.869, 20.1896
59, 2700.00000, 767.751, 20.6095, 758.064, 21.734, 784.579, 20.4582
60, 0.00000, 779.83, 20.8923, 782.712, 21.9904, 796.029, 20.5803
60, 900.00000, 799.502, 21.0896, 826.974, 21.6092, 809.801, 20.7023
60, 1800.00000, 773.698, 20.6453, 801.274, 21, 790.006, 20.3324
60, 2700.00000, 761.073, 20.2923, 764.475, 20.5864, 775.001, 19.7751
61, 0.00000, 789.503, 20.4066, 798.533, 20.6454, 785.863, 20.1534
61, 900.00000, 778.398, 19.7089, 810.995, 20.0789, 784.351, 19.7299
61, 1800.00000, 783.896, 19.2199, 828.445, 19.5769, 800.157, 19.2704
61, 2700.00000, 768.627, 18.8554, 803.724, 18.9536, 791.953, 18.8612
62, 0.00000, 747.991, 18.1203, 780.257, 18.3737, 813.912, 17.611
62, 900.00000, 737.021, 17.3381, 765.291, 17.5448, 816.463, 17.0015
62, 1800.00000, 768.732, 17.6395, 790.405, 17.4794, 822.175, 17.0604
62, 2700.00000, 789.218, 17.4624, 813.7, 17.289, 791.964, 17.3768
63, 0.00000, 824.58, 17.3712, 847.669, 17.1207, 822.583, 17.3343
63, 900.00000, 852.68, 17.2065, 864.328, 17.0804, 835.867, 17.231
63, 1800.00000, 867.702, 17.0884, 894.439, 17.0921, 847.211, 17.1725
63, 2700.00000, 877.433, 16.9096, 926.755, 16.959, 858.941, 17.0114
64, 0.00000, 906.614, 17.6754, 935.814, 17.5698, 862.834, 17.4093
64, 900.00000, 960.516, 17.78, 972.88, 17.8767, 914.88, 17.5085
64, 1800.00000, 959.837, 17.8762, 960.167, 18.1239, 914.54, 17.7046
64, 2700.00000, 1016.81, 18.1607, 1030.75, 18.3745, 972.762, 17.9362
65, 0.00000, 1027.53, 17.7954, 1051.84, 17.727, 990.245, 17.5239
65, 900.00000, 1084.4, 16.956, 1096.48, 16.8994, 1042.03, 16.5733
65, 1800.00000, 1040.79, 16.6219, 1026.28, 16.7964, 977.575, 16.32
65, 2700.00000, 1032.72, 16.583, 1021.14, 16.7056, 968.023, 16.4103
66, 0.00000, 1044.66, 16.6512, 1014.54, 16.6725, 981.921, 16.5159
66, 900.00000, 1163.81, 16.7787, 1121.03, 16.8714, 1084.55, 16.7117
66, 1800.00000, 1106.32, 17.0641, 1083.92, 16.9616, 1050.88, 16.8367
66, 2700.00000, 1098.19, 17.0772, 1085.99, 16.9275, 1062.84, 16.7196
67, 0.00000, 1126.77, 17.0504, 1130.62, 17.004, 1097.1, 16.6365
67, 900.00000, 1091.67, 16.548, 1115.5, 16.7795, 1084.59, 16.3544
67, 1800.00000, 1059.2, 16.5561, 1092.51, 17.0596, 1061.99, 16.5653
67, 2700.00000, 1047.83, 16.7606, 1067.2, 16.9856, 1069.06, 16.6632
68, 0.00000, 1054.36, 16.7428, 1044.37, 16.7599, 1041.69, 16.5071
68, 900.00000, 994.255, 16.5788, 978.197, 16.242, 973.037, 16.0736
68, 1800.00000, 1010.11, 16.5022, 1019.98, 16.5156, 1014.18, 16.173
68, 2700.00000, 1023, 16.4316, 1035.58, 16.3313, 1036.17, 15.8974
69, 0.00000, 1033.97, 16.4696, 1040.4, 16.344, 1049.2, 15.8605
69, 900.00000, 971.337, 16.8404, 963.977, 16.7861, 990.449, 16.3476
69, 1800.00000, 965.814, 17.0312, 970.619, 17.1684, 990.356, 16.5597
69, 2700.00000, 941.188, 16.9126, 932.293, 17.0649, 948.767, 16.3874
70, 0.00000, 944.301, 17.2812, 919.824, 17.2179, 925.078, 16.4504
70, 900.00000, 853.784, 17.1229, 816.754, 16.9952, 837.378, 16.339
70, 1800.00000, 817.696, 16.9627, 768.034, 16.6702, 798.844, 16.1315
70, 2700.00000, 829.096, 17.0882, 820.521, 17.2924, 829.378, 16.5608
71, 0.00000, 858.86, 16.96, 851, 17.2551, 848.388, 16.2571
71, 900.00000, 771.259, 16.9643, 753.166, 16.9712, 765.142, 16.1066
71, 1800.00000, 742.392, 16.4548, 736.747, 16.6247, 747.175, 15.7289
71, 2700.00000, 713.508, 16.1593, 691.058, 15.997, 715.032, 15.2761
72, 0.00000, 697.923, 16.0402, 691.006, 16.006, 718.028, 15.446
72, 900.00000, 639.097, 16.0781, 640.321, 16.0334, 654.186, 15.4476
72, 1800.00000, 621.86, 15.8189, 606.942, 15.7223, 627.02, 15.4156
72, 2700.00000, 598.844, 15.3583, 584.855, 15.2839, 613.011, 15.1038
73, 0.00000, 586.407, 15.0286, 582.885, 15.18, 601.551, 14.8221
73, 900.00000, 528.172, 16.016, 528.007, 16.0047, 530.051, 16.2269
73, 1800.00000, 537.899, 16.1911, 535.622, 16.0593, 536.356, 16.3741
73, 2700.00000, 570.935, 16.6824, 572.394, 16.537, 564.112, 16.5845
74, 0.00000, 567.144, 16.5506, 568.365, 16.3449, 565.124, 16.5105
