hour, t(sec), S1 (kVA), Ang1, S2 (kVA), Ang2, S3 (kVA), Ang3
0, 900.00000, 1427.55, 19.1614, 1483.84, 19.4033, 1468.9, 19.6812
0, 1800.00000, 1425.36, 19.0456, 1495.34, 19.3381, 1477.98, 19.5998
0, 2700.00000, 1436.3, 18.9756, 1504.62, 19.1938, 1477.09, 19.4147
1, 0.00000, 1472.07, 19.017, 1506.89, 19.0902, 1498.25, 19.2906
1, 900.00000, 1434.14, 18.8597, 1480.78, 19.1476, 1496.1, 19.0563
1, 1800.00000, 1444.51, 18.7077, 1465.77, 19.0547, 1483.96, 19.0615
1, 2700.00000, 1437.49, 18.5949, 1455.68, 18.9411, 1458.38, 18.9636
2, 0.00000, 1438.14, 18.5391, 1468.52, 18.9413, 1455.43, 18.9167
2, 900.00000, 1481.54, 18.0935, 1506.54, 18.462, 1512.94, 18.6103
2, 1800.00000, 1450.13, 18.1757, 1482.1, 18.4438, 1478.04, 18.5489
2, 2700.00000, 1465.1, 17.9211, 1502.88, 18.1533, 1486.4, 18.2552
3, 0.00000, 1466.05, 17.8186, 1505.14, 18.031, 1491.07, 18.168
3, 900.00000, 1513.39, 17.4251, 1541.37, 17.6943, 1540.83, 17.688
3, 1800.00000, 1521.28, 17.5044, 1550.22, 17.6263, 1538.64, 17.6778
3, 2700.00000, 1534.62, 17.412, 1558.77, 17.6106, 1548.3, 17.5945
4, 0.00000, 1544.87, 17.2398, 1563.08, 17.537, 1556.83, 17.4546
4, 900.00000, 1506.75, 17.5848, 1574.58, 17.4783, 1597.81, 17.6772
4, 1800.00000, 1527.02, 17.6299, 1605.75, 17.7749, 1602.75, 17.7644
4, 2700.00000, 1519.18, 17.4706, 1572.8, 17.3465, 1584.73, 17.5646
5, 0.00000, 1543.12, 17.5508, 1578.38, 17.3462, 1594.81, 17.391
5, 900.00000, 1603.35, 17.6189, 1661.37, 17.4785, 1609, 17.6158
5, 1800.00000, 1597.18, 17.531, 1641.04, 17.3594, 1597.1, 17.6431
5, 2700.00000, 1639.68, 17.4833, 1709.59, 17.4548, 1692.63, 17.6396
6, 0.00000, 1641.59, 17.415, 1725.17, 17.4788, 1707.67, 17.6777
6, 900.00000, 1773.21, 17.4486, 1851.29, 17.307, 1878.41, 17.424
6, 1800.00000, 1780.7, 17.5052, 1875.97, 17.4433, 1904.07, 17.7055
6, 2700.00000, 1806, 17.5119, 1887.74, 17.465, 1947.61, 17.6366
7, 0.00000, 1837.89, 17.4469, 1925.22, 17.2184, 1960.89, 17.5306
7, 900.00000, 1990.49, 17.6574, 2055.7, 17.9004, 2102, 18.0588
7, 1800.00000, 1940.07, 17.7067, 2002.17, 18.0138, 2060.95, 17.9749
7, 2700.00000, 1933.29, 17.9194, 1944.86, 18.4955, 1969.57, 18.5171
8, 0.00000, 1855.21, 19.2057, 1872.15, 19.6543, 1910.24, 19.8087
8, 900.00000, 1835.52, 20.3965, 1832.1, 21.0315, 1854.47, 21.003
8, 1800.00000, 1739.97, 21.4653, 1738.55, 22.4228, 1722.7, 22.1228
8, 2700.00000, 1715.49, 22.6816, 1724.57, 24.0173, 1685.62, 23.5858
9, 0.00000, 1662.64, 24.1747, 1650.34, 24.7802, 1598.78, 24.9985
9, 900.00000, 1618.68, 25.4899, 1627.7, 25.9605, 1562.1, 26.1545
9, 1800.00000, 1550.98, 27.3694, 1563.76, 28.054, 1516.05, 27.8547
9, 2700.00000, 1505.83, 29.1556, 1470.88, 30.3872, 1498.83, 29.3605
10, 0.00000, 1440.59, 30.7867, 1354.07, 33.0607, 1415.86, 31.127
10, 900.00000, 1385.65, 32.573, 1283.75, 35.6244, 1366.98, 32.8946
10, 1800.00000, 1349.02, 34.0271, 1262.47, 37.6832, 1339.64, 34.5413
10, 2700.00000, 1305.68, 36.2954, 1172.76, 40.9447, 1248.64, 37.3842
11, 0.00000, 1269.71, 38.0173, 1139.42, 42.6228, 1197.66, 39.4392
11, 900.00000, 1230.21, 39.4111, 1142.16, 43.6968, 1194.21, 40.5594
11, 1800.00000, 1227.77, 39.5879, 1100.82, 44.9583, 1139.32, 41.6986
11, 2700.00000, 1258.49, 39.2613, 1131.49, 44.9332, 1191.23, 41.0875
12, 0.00000, 1238.72, 39.51, 1142.19, 44.5163, 1193.97, 41.1395
12, 900.00000, 1309.43, 38.1431, 1181.43, 43.3545, 1229.48, 39.808
12, 1800.00000, 1319.87, 38.3574, 1181.63, 43.8175, 1240.21, 39.977
12, 2700.00000, 1293.84, 38.907, 1177.71, 44.3965, 1234.36, 40.181
13, 0.00000, 1273.77, 39.5337, 1153.51, 45.2037, 1211.87, 40.9176
13, 900.00000, 1244.11, 39.9797, 1149.35, 45.8156, 1237.89, 40.9914
13, 1800.00000, 1250.25, 39.3656, 1146.61, 44.9965, 1222.97, 40.4932
13, 2700.00000, 1270.58, 38.3765, 1165.49, 43.3334, 1227.05, 39.3725
14, 0.00000, 1274.43, 37.4952, 1185.4, 41.9876, 1273.75, 37.6906
14, 900.00000, 1289.55, 36.0106, 1250.86, 39.1461, 1345.12, 35.5143
14, 1800.00000, 1322.74, 35.11, 1269.99, 38.0756, 1346.5, 35.1469
14, 2700.00000, 1353.68, 33.904, 1261.98, 37.2844, 1329.22, 34.3161
15, 0.00000, 1395.23, 32.1691, 1319.26, 35.3245, 1399.38, 32.381
15, 900.00000, 1433.02, 30.6215, 1360.05, 33.2225, 1406.56, 31.2
15, 1800.00000, 1495.33, 28.5317, 1462.29, 30.111, 1483.26, 29.0172
15, 2700.00000, 1603.53, 26.0526, 1646.25, 26.6238, 1588.38, 26.5717
16, 0.00000, 1719.63, 23.8543, 1743.74, 24.1423, 1658.1, 24.258
16, 900.00000, 1822.06, 22.3597, 1841.25, 22.6362, 1826.74, 22.6531
16, 1800.00000, 1795.06, 22.4775, 1821.84, 22.7527, 1808.24, 22.722
16, 2700.00000, 1768.6, 22.5075, 1814.32, 22.8224, 1796.04, 22.5903
17, 0.00000, 1818.55, 21.3088, 1871.39, 21.2804, 1879.67, 21.4645
17, 900.00000, 1970.89, 20.2755, 2071.95, 20.2797, 2040, 20.4884
17, 1800.00000, 1977.5, 19.864, 2122.71, 20.114, 2086.2, 20.14
17, 2700.00000, 1993.8, 19.7864, 2095.01, 20.0768, 2084.71, 20.0391
18, 0.00000, 2009.81, 19.6226, 2143.21, 19.8912, 2113.08, 19.9501
18, 900.00000, 2165.71, 19.2242, 2271.65, 19.3715, 2234.37, 19.5837
18, 1800.00000, 2160.81, 19.1879, 2221.85, 19.3388, 2158.99, 19.5851
18, 2700.00000, 2131.96, 19.4035, 2191.16, 19.505, 2160.08, 19.7073
19, 0.00000, 2101.73, 19.6607, 2196.8, 19.5737, 2165.27, 19.8748
19, 900.00000, 2074.19, 19.0197, 2195.09, 19.1099, 2136.33, 19.3968
19, 1800.00000, 2082.23, 19.0297, 2231.07, 19.2194, 2195.35, 19.4956
19, 2700.00000, 2155.52, 19.0491, 2254.62, 19.4967, 2238.26, 19.7919
20, 0.00000, 2153.55, 18.8082, 2273, 19.5146, 2253.2, 19.7405
20, 900.00000, 2094.7, 19.0228, 2174.98, 19.5229, 2180.08, 19.8799
20, 1800.00000, 2103.03, 19.3443, 2167.63, 19.6104, 2161.6, 19.8234
20, 2700.00000, 2122.12, 19.3954, 2192.1, 19.5297, 2132.63, 19.7571
21, 0.00000, 2082.24, 19.0353, 2185.23, 19.1992, 2113.62, 19.5873
21, 900.00000, 1910.47, 19.4579, 2029.14, 19.686, 1996.79, 20.0239
21, 1800.00000, 1930.69, 19.5022, 2048.04, 19.6515, 1951.67, 19.9356
21, 2700.00000, 1923.48, 19.5969, 2045.38, 19.7147, 1962.1, 19.9302
22, 0.00000, 1869.25, 19.735, 1974.83, 19.9262, 1929.17, 19.9887
22, 900.00000, 1781.22, 19.4905, 1774.87, 20.2497, 1771.53, 19.7444
22, 1800.00000, 1761.34, 19.4577, 1721.35, 20.247, 1767.83, 20.0097
22, 2700.00000, 1724.99, 19.4613, 1657.65, 20.155, 1708, 19.9026
23, 0.00000, 1662.84, 19.2616, 1615.79, 19.9839, 1645.81, 19.8576
23, 900.00000, 1540.75, 19.5297, 1509.54, 20.0672, 1500.98, 20.183
23, 1800.00000, 1535.77, 19.6316, 1484.1, 20.0567, 1459.57, 20.2346
23, 2700.00000, 1435.83, 19.5765, 1454.93, 19.9902, 1474.34, 20.4077
24, 0.00000, 1408.37, 19.5339, 1441.2, 19.9626, 1441.52, 20.3067
24, 900.00000, 1400.7, 19.2542, 1412.44, 19.7445, 1393.86, 19.9015
24, 1800.00000, 1396.53, 18.8265, 1415.17, 19.7716, 1394.71, 19.8974
24, 2700.00000, 1376.63, 18.8233, 1390.6, 19.4663, 1361.02, 19.5345
25, 0.00000, 1336.4, 19.0658, 1363.57, 19.4211, 1348.43, 19.5006
25, 900.00000, 1344.1, 19.164, 1391.82, 19.7349, 1379.41, 19.4552
25, 1800.00000, 1343.32, 19.1057, 1348.88, 19.5229, 1356.38, 19.3286
25, 2700.00000, 1303.45, 18.9612, 1321.26, 19.2948, 1340.33, 19.2766
26, 0.00000, 1312.65, 19.0003, 1299.99, 19.2449, 1309.56, 19.1937
26, 900.00000, 1329.5, 18.4229, 1338.72, 18.802, 1331.03, 18.7289
26, 1800.00000, 1305.62, 18.6475, 1318.21, 18.7934, 1312.9, 18.792
26, 2700.00000, 1313.71, 18.372, 1332.88, 18.5241, 1315.92, 18.5275
27, 0.00000, 1308.52, 18.3071, 1324.86, 18.5742, 1312.04, 18.5687
27, 900.00000, 1337.85, 17.7534, 1347.44, 18.2411, 1362.39, 18.1155
27, 1800.00000, 1325.22, 17.7941, 1337.81, 18.0921, 1340.27, 18.0677
27, 2700.00000, 1333.8, 17.6172, 1351.52, 18.1409, 1347.32, 17.9412
28, 0.00000, 1350.2, 17.5833, 1349.1, 18.0094, 1339.02, 17.7142
28, 900.00000, 1343.46, 18.1973, 1399.88, 18.2153, 1401.55, 18.1251
28, 1800.00000, 1309.78, 18.1311, 1373.16, 18.2188, 1384.53, 18.2116
28, 2700.00000, 1327.5, 17.9283, 1391.58, 18.0044, 1384.34, 17.9025
29, 0.00000, 1338.46, 17.8751, 1402.48, 17.8804, 1381.22, 17.7216
29, 900.00000, 1417.69, 17.6444, 1491.17, 17.8425, 1447.95, 18.1247
29, 1800.00000, 1440.42, 17.818, 1489.41, 18.1185, 1492.56, 18.4763
29, 2700.00000, 1468.31, 18.2808, 1527.89, 18.2605, 1514.31, 18.6926
30, 0.00000, 1511.58, 18.3971, 1542.44, 18.4062, 1520.47, 18.6594
30, 900.00000, 1654.04, 18.0343, 1736.72, 18.1294, 1688.72, 18.1376
30, 1800.00000, 1685.68, 18.2819, 1779.25, 18.5771, 1754.19, 18.6563
30, 2700.00000, 1749.48, 18.1419, 1806.79, 18.573, 1797.33, 18.388
31, 0.00000, 1752.99, 18.0799, 1765.97, 18.5671, 1757.6, 18.2528
31, 900.00000, 1924.09, 18.0177, 1919.92, 18.9729, 1886.85, 18.602
31, 1800.00000, 1874.06, 18.6533, 1909.27, 19.3083, 1918.52, 18.9353
31, 2700.00000, 1876.95, 18.8498, 1863.09, 19.0123, 1925.79, 18.9384
32, 0.00000, 1854.68, 18.8493, 1886.53, 19.2143, 1933.77, 18.9249
32, 900.00000, 1895.96, 18.9491, 1930.69, 19.6878, 1965.81, 19.5973
32, 1800.00000, 1878.92, 19.1546, 1865.49, 19.8052, 1889.08, 19.9018
32, 2700.00000, 1877.52, 19.6908, 1864.32, 20.2256, 1856.61, 20.2353
33, 0.00000, 1780.74, 20.5087, 1815.38, 20.6886, 1799.17, 20.7202
33, 900.00000, 1780.22, 21.0797, 1803.63, 21.2431, 1796.89, 21.3112
33, 1800.00000, 1697.91, 22.3589, 1755.62, 22.7827, 1747.99, 22.4888
33, 2700.00000, 1661.86, 23.4998, 1628.9, 24.1312, 1655.67, 23.5584
34, 0.00000, 1577.07, 25.0147, 1501.08, 26.2132, 1542, 25.1196
34, 900.00000, 1564.49, 26.7837, 1471.67, 28.3419, 1492.53, 27.1616
34, 1800.00000, 1493.34, 28.2455, 1417.55, 30.0894, 1434.53, 28.6974
34, 2700.00000, 1409.79, 30.161, 1354.11, 32.1498, 1370.27, 30.7112
35, 0.00000, 1448.92, 28.3998, 1414.1, 29.8794, 1411.68, 28.7897
35, 900.00000, 1555.82, 26.0306, 1539.14, 26.8046, 1493.31, 25.9361
35, 1800.00000, 1545.3, 26.056, 1515.8, 26.8605, 1525.26, 25.9925
35, 2700.00000, 1531.45, 25.7076, 1519.34, 26.3154, 1521.69, 25.3979
36, 0.00000, 1514.37, 25.7681, 1481, 26.5769, 1479.95, 25.4084
36, 900.00000, 1628.77, 24.7372, 1549.15, 26.0877, 1569.84, 24.4398
36, 1800.00000, 1691.49, 23.4228, 1582.86, 24.5259, 1613.69, 23.4072
36, 2700.00000, 1687.41, 22.6312, 1625.84, 23.2687, 1633.85, 22.5399
37, 0.00000, 1636.54, 22.7793, 1614.93, 23.2277, 1607.07, 22.8119
37, 900.00000, 1626.17, 22.7299, 1580.62, 23.6628, 1571.03, 23.0721
37, 1800.00000, 1585.76, 23.2957, 1541.1, 23.9262, 1555.94, 23.0661
37, 2700.00000, 1582.95, 22.9898, 1580.35, 23.5441, 1598.01, 22.6589
38, 0.00000, 1517.03, 22.4208, 1571.09, 23.0304, 1595.36, 21.9315
38, 900.00000, 1520.46, 21.911, 1569.16, 22.1717, 1588.99, 21.4938
38, 1800.00000, 1518.8, 22.2687, 1529.75, 22.5143, 1523.8, 21.8082
38, 2700.00000, 1502.28, 22.4245, 1528.97, 22.6043, 1490.84, 22.1217
39, 0.00000, 1480.53, 22.3927, 1533.96, 22.7207, 1493.89, 22.1725
39, 900.00000, 1503.68, 22.0885, 1522.16, 22.4666, 1503.11, 21.8256
39, 1800.00000, 1488.08, 22.3889, 1526.88, 22.6238, 1516.84, 21.9673
39, 2700.00000, 1503.81, 21.8072, 1566.32, 22.0406, 1549.78, 21.4089
40, 0.00000, 1507.23, 21.5599, 1589.13, 21.7758, 1549.62, 21.3428
40, 900.00000, 1574.81, 21.1352, 1673.7, 21.284, 1610.52, 21.1853
40, 1800.00000, 1628.12, 20.8029, 1728.26, 20.9898, 1624.07, 21.0819
40, 2700.00000, 1626.43, 20.5372, 1696.64, 20.9061, 1625.42, 20.7938
41, 0.00000, 1620.12, 20.553, 1689.55, 20.7036, 1635.58, 20.4984
41, 900.00000, 1787.16, 20.0245, 1804.81, 20.1026, 1778.51, 20.161
41, 1800.00000, 1819.52, 19.7518, 1874.02, 19.8159, 1909.69, 19.7039
41, 2700.00000, 1904.52, 19.2553, 1928.56, 19.9988, 1968.43, 20.0445
42, 0.00000, 1919.84, 19.5338, 1947.4, 19.8374, 1933.79, 19.7797
42, 900.00000, 2029.49, 18.8889, 2046.3, 19.0553, 2020.99, 19.4214
42, 1800.00000, 1985.47, 19.0568, 2019.73, 19.3615, 1992.99, 19.7003
42, 2700.00000, 1984.18, 19.051, 1975.77, 19.668, 1998.63, 20.061
43, 0.00000, 2001.7, 19.0859, 1933.97, 19.829, 1963.01, 20.0368
43, 900.00000, 2031.15, 18.5012, 1973.61, 19.5343, 2012.63, 19.7573
43, 1800.00000, 1979.9, 19.0945, 2016.75, 19.7205, 2042.81, 19.9227
43, 2700.00000, 1950.17, 19.1161, 2028.09, 19.6091, 2043.84, 19.8461
44, 0.00000, 1985.1, 19.1918, 2038.8, 19.5791, 2067.37, 19.7594
44, 900.00000, 1948.11, 19.2268, 1976, 19.5733, 2015.79, 19.9399
44, 1800.00000, 1943.55, 19.0826, 1952.33, 19.4616, 1972.55, 19.6777
44, 2700.00000, 1916.42, 19.2853, 1955.07, 19.6624, 1974.58, 19.7309
45, 0.00000, 1906.49, 19.2771, 1945.31, 19.7351, 1974.16, 19.6195
45, 900.00000, 1813.82, 19.9444, 1869.81, 20.1562, 1872.73, 20.1027
45, 1800.00000, 1822.43, 19.7855, 1829.56, 20.3144, 1863.89, 20.1309
45, 2700.00000, 1807.38, 19.9135, 1823.72, 20.3338, 1882.31, 20.1579
46, 0.00000, 1821.45, 19.8715, 1871.85, 20.3766, 1843.44, 20.4166
46, 900.00000, 1689.97, 19.718, 1731.55, 20.2, 1701.83, 20.3441
46, 1800.00000, 1617.07, 19.7465, 1656.57, 20.1852, 1681.92, 20.6281
46, 2700.00000, 1599.07, 19.7941, 1646.3, 20.3316, 1637.24, 20.6079
47, 0.00000, 1577.2, 19.8609, 1610.31, 20.5055, 1621.33, 20.7587
47, 900.00000, 1430.35, 20.7037, 1468.15, 20.9552, 1467.75, 21.1595
47, 1800.00000, 1392.21, 20.3887, 1418.94, 20.6367, 1435.24, 21.0123
47, 2700.00000, 1348.16, 20.1938, 1397.21, 20.6034, 1420.74, 20.9982
48, 0.00000, 1356.76, 20.2603, 1412.1, 20.6552, 1411.59, 20.9076
48, 900.00000, 1329.33, 19.8688, 1401.33, 20.2168, 1398.33, 20.4458
48, 1800.00000, 1305.75, 19.7008, 1358.29, 19.8503, 1379.25, 20.3458
48, 2700.00000, 1274.51, 19.5407, 1319.86, 19.8001, 1327.96, 20.1816
49, 0.00000, 1261.76, 19.3046, 1309.95, 19.5789, 1297.32, 19.9176
49, 900.00000, 1241.56, 19.5249, 1286.24, 19.7381, 1293.87, 19.8067
49, 1800.00000, 1255.82, 19.5632, 1284.81, 19.819, 1291.19, 19.8532
49, 2700.00000, 1236.91, 19.457, 1259.55, 19.6987, 1266.22, 19.711
50, 0.00000, 1241.7, 19.448, 1263.73, 19.6693, 1261.85, 19.7071
50, 900.00000, 1283.97, 19.0002, 1304.23, 19.297, 1295.39, 19.2143
50, 1800.00000, 1257.24, 19.2349, 1271.31, 19.3952, 1271.96, 19.3848
50, 2700.00000, 1274.16, 18.9516, 1294.34, 19.2045, 1291.53, 19.2175
51, 0.00000, 1261.98, 18.8254, 1280.31, 19.0811, 1271.94, 19.0563
51, 900.00000, 1312.99, 18.5801, 1301.78, 18.7067, 1303.53, 18.5349
51, 1800.00000, 1272.86, 18.4161, 1288.53, 18.639, 1293.4, 18.5779
51, 2700.00000, 1297.15, 18.4116, 1318.71, 18.8012, 1316.71, 18.6387
52, 0.00000, 1294.71, 18.3568, 1297.1, 18.6437, 1315.08, 18.5788
52, 900.00000, 1271.23, 18.8067, 1317.13, 18.6769, 1328.5, 18.6252
52, 1800.00000, 1295.91, 18.902, 1361.28, 18.9144, 1375.31, 18.9522
52, 2700.00000, 1316.99, 18.6606, 1384.94, 18.4869, 1412.48, 18.8216
53, 0.00000, 1320.26, 18.5576, 1378.04, 18.4951, 1408.3, 18.7371
53, 900.00000, 1391.13, 18.3646, 1444.99, 18.2645, 1434.33, 18.6219
53, 1800.00000, 1407.78, 18.3449, 1456.8, 18.3942, 1473.71, 18.5944
53, 2700.00000, 1463.65, 18.6609, 1511.65, 18.4089, 1519.78, 18.6235
54, 0.00000, 1488.37, 18.6417, 1539.12, 18.4239, 1511.56, 18.5065
54, 900.00000, 1631.88, 18.2285, 1710.61, 18.1714, 1682.03, 18.0351
54, 1800.00000, 1623.83, 18.2469, 1700.76, 18.222, 1665.87, 17.9599
54, 2700.00000, 1638, 18.4027, 1749.59, 18.6479, 1712.88, 18.3069
55, 0.00000, 1658.41, 18.5652, 1772.18, 18.7294, 1739.42, 18.4643
55, 900.00000, 1823.68, 18.6493, 1854.82, 18.7908, 1805.57, 18.5538
55, 1800.00000, 1821.98, 19.0106, 1806.09, 19.1715, 1768.19, 18.7897
55, 2700.00000, 1835.53, 19.1922, 1753.92, 19.2922, 1781.92, 18.9416
56, 0.00000, 1805.28, 19.3922, 1736.07, 19.6505, 1771.79, 19.3876
56, 900.00000, 1843.5, 19.6405, 1791.83, 20.2476, 1794.56, 19.7963
56, 1800.00000, 1801.15, 20.2904, 1734.27, 20.7185, 1747.83, 20.4277
56, 2700.00000, 1794.16, 20.4409, 1717.68, 20.9999, 1729.62, 20.8126
57, 0.00000, 1805.46, 20.8948, 1720.61, 21.4716, 1763.31, 21.2687
57, 900.00000, 1808.08, 20.9681, 1747.7, 21.4767, 1797.45, 21.1801
57, 1800.00000, 1815.26, 20.9668, 1747.88, 21.3691, 1800.03, 20.7101
57, 2700.00000, 1802.4, 20.9348, 1763.45, 21.2934, 1820.65, 20.6345
58, 0.00000, 1789.57, 20.4896, 1789.65, 21.0827, 1807.55, 20.4578
58, 900.00000, 1799.45, 20.2837, 1878.46, 20.3947, 1859.5, 19.9749
58, 1800.00000, 1767.81, 20.4431, 1861.39, 20.5192, 1858.49, 20.2302
58, 2700.00000, 1746.01, 20.3744, 1843.4, 20.4683, 1816.73, 20.452
59, 0.00000, 1723.45, 20.4527, 1838.37, 20.2736, 1767.56, 20.4591
59, 900.00000, 1732.7, 20.4938, 1828.96, 20.1984, 1769.91, 20.2818
59, 1800.00000, 1735.33, 20.8092, 1772.44, 20.8048, 1717.03, 20.7922
59, 2700.00000, 1730.2, 21.094, 1809.29, 20.9259, 1746.53, 20.988
60, 0.00000, 1702.09, 21.441, 1721.41, 21.314, 1691.21, 21.1378
60, 900.00000, 1723.46, 21.4873, 1712.03, 21.5876, 1740.62, 21.1114
60, 1800.00000, 1671.03, 21.7906, 1664.14, 21.9237, 1706.92, 21.4912
60, 2700.00000, 1689.95, 21.6022, 1639.99, 21.9014, 1681.38, 21.249
61, 0.00000, 1686.64, 21.3235, 1662.23, 21.8073, 1689.28, 21.0455
61, 900.00000, 1699.61, 20.9429, 1721.85, 21.5939, 1714.31, 20.9824
61, 1800.00000, 1673.48, 20.783, 1702.23, 21.2674, 1705.58, 20.7628
61, 2700.00000, 1674.65, 20.4922, 1707.25, 21.2467, 1711.99, 20.5104
62, 0.00000, 1662.44, 20.3054, 1696.58, 21.0267, 1678.87, 20.2432
62, 900.00000, 1631.44, 20.1241, 1699.68, 20.429, 1645.27, 20.2188
62, 1800.00000, 1589.4, 20.2992, 1674.25, 20.4602, 1619.55, 20.3012
62, 2700.00000, 1590.3, 20.1889, 1669.58, 20.2455, 1603.57, 20.1754
63, 0.00000, 1589.02, 20.0581, 1655.58, 20.2414, 1593.71, 19.9278
63, 900.00000, 1602.31, 19.9873, 1664.95, 20.2638, 1661.5, 19.8116
63, 1800.00000, 1574.95, 20.4627, 1632.99, 20.7367, 1669.34, 20.0033
63, 2700.00000, 1565.64, 20.5601, 1599.52, 20.6739, 1636.95, 20.0894
64, 0.00000, 1593.56, 20.1975, 1594.22, 20.3814, 1636.66, 20.0039
64, 900.00000, 1679.81, 19.9741, 1695.81, 20.4899, 1690.8, 20.2929
64, 1800.00000, 1680.81, 20.1059, 1704.7, 20.2935, 1662.95, 20.159
64, 2700.00000, 1683.71, 19.9019, 1730.43, 20.2218, 1694.87, 19.9452
65, 0.00000, 1692, 19.7444, 1764.82, 19.9373, 1700.45, 19.7963
65, 900.00000, 1826.53, 19.4383, 1909.04, 19.8067, 1824.93, 19.7859
65, 1800.00000, 1778.56, 19.6042, 1881.65, 19.8107, 1793.67, 19.8594
65, 2700.00000, 1839.57, 19.368, 1920.61, 19.7479, 1817.47, 19.9228
66, 0.00000, 1842.36, 19.2869, 1938.31, 19.7026, 1858.1, 19.7493
66, 900.00000, 1981.4, 18.8496, 2063.29, 19.0889, 2015.96, 19.3061
66, 1800.00000, 1950.89, 18.9541, 2027.86, 19.0638, 1937.11, 19.4421
66, 2700.00000, 1958.53, 18.8237, 2080.27, 19.1472, 1957.79, 19.4004
67, 0.00000, 1984.12, 18.9416, 2062.66, 19.3799, 1978.53, 19.4976
67, 900.00000, 2020.14, 18.5537, 2098.02, 18.9678, 2024.74, 19.2092
67, 1800.00000, 1995.84, 18.3942, 2058.25, 18.9944, 1976.26, 19.1399
67, 2700.00000, 2075.82, 18.2568, 2089.28, 19.0415, 1968.15, 19.11
68, 0.00000, 2061.82, 18.2448, 2092.2, 19.0279, 1997.89, 19.1743
68, 900.00000, 1965.93, 18.3753, 2071.37, 18.6015, 1909.91, 19.2254
68, 1800.00000, 1963.23, 18.5577, 2021.77, 18.8385, 1920.41, 19.2034
68, 2700.00000, 1942.51, 18.6039, 2031.41, 18.8614, 1956.21, 19.2737
69, 0.00000, 1986.92, 18.7128, 2061.97, 18.7947, 1992.98, 19.3376
69, 900.00000, 1853.52, 19.1067, 1970.67, 19.2741, 1885.67, 19.7296
69, 1800.00000, 1840.61, 18.8544, 1950.7, 19.2207, 1867.32, 19.5856
69, 2700.00000, 1830.38, 18.7672, 1902.01, 19.3225, 1811.73, 19.4832
70, 0.00000, 1804.91, 19.0441, 1837.99, 19.5325, 1778.78, 19.6223
70, 900.00000, 1666.08, 19.1738, 1719.51, 19.5778, 1662.59, 19.5907
70, 1800.00000, 1606.04, 19.2654, 1668.91, 19.5895, 1612.42, 19.6121
70, 2700.00000, 1562.02, 19.2632, 1609.53, 19.7025, 1565.78, 19.5073
71, 0.00000, 1581.07, 19.4098, 1556.36, 19.5327, 1558.26, 19.5079
71, 900.00000, 1448.23, 19.4195, 1477.55, 19.6239, 1450.58, 19.8299
71, 1800.00000, 1399.4, 19.3891, 1460.79, 19.4995, 1414.82, 19.7072
71, 2700.00000, 1390.24, 19.2337, 1437.2, 19.3423, 1395.55, 19.5995
72, 0.00000, 1377.61, 19.2114, 1422.57, 19.3812, 1395.3, 19.7819
72, 900.00000, 1337.6, 19.181, 1397.52, 19.446, 1384.64, 19.7961
72, 1800.00000, 1324.01, 19.1413, 1353.59, 19.3222, 1341, 19.5854
72, 2700.00000, 1307.2, 19.0701, 1340.76, 19.2851, 1343.71, 19.6379
73, 0.00000, 1306.66, 19.1266, 1309.01, 19.1412, 1325.59, 19.6028
73, 900.00000, 1289.48, 19.1893, 1297.35, 19.1822, 1300.77, 19.2998
73, 1800.00000, 1281, 19.1294, 1288.62, 19.2358, 1291.72, 19.3705
73, 2700.00000, 1278.72, 19.1958, 1280.7, 19.1698, 1290.95, 19.3997
74, 0.00000, 1267.44, 19.08, 1278.39, 19.1098, 1292.2, 19.3888
74, 900.00000, 1317.63, 18.725, 1315.28, 18.87, 1327.86, 19.045
